T889C 000:009.255   SEGGER J-Link V8.16 Log File
T889C 000:009.427   DLL Compiled: Feb 26 2025 12:07:26
T889C 000:009.435   Logging started @ 2026-07-08 06:48
T889C 000:009.442   Process: C:\Users\15940\AppData\Local\Keil_v5\UV4\UV4.exe
T889C 000:009.456 - 9.449ms 
T889C 000:009.469 JLINK_SetWarnOutHandler(...)
T889C 000:009.476 - 0.009ms 
T889C 000:009.486 JLINK_OpenEx(...)
T889C 000:014.549   Firmware: J-Link V9 compiled May  7 2021 16:26:12
T889C 000:016.104   Firmware: J-Link V9 compiled May  7 2021 16:26:12
T889C 000:016.327   Decompressing FW timestamp took 160 us
T889C 000:024.019   Hardware: V9.70
T889C 000:024.049   S/N: 63728769
T889C 000:024.059   OEM: SEGGER
T889C 000:024.070   Feature(s): GDB, RDI, FlashBP, FlashDL, JFlash
T889C 000:025.342   Bootloader: (FW returned invalid version)
T889C 000:026.858   TELNET listener socket opened on port 19021
T889C 000:027.255   WEBSRV WEBSRV_Init(): Starting webserver thread(s)
T889C 000:027.506   WEBSRV Webserver running on local port 19080
T889C 000:027.794   Looking for J-Link GUI Server exe at: C:\Users\15940\AppData\Local\Keil_v5\ARM\Segger\JLinkGUIServer.exe
T889C 000:028.134   Looking for J-Link GUI Server exe at: \JLinkGUIServer.exe
T889C 000:335.311   Failed to connect to J-Link GUI Server.
T889C 000:335.372 - 325.873ms returns "O.K."
T889C 000:335.411 JLINK_GetEmuCaps()
T889C 000:335.426 - 0.010ms returns 0xB9FF7BBF
T889C 000:335.440 JLINK_TIF_GetAvailable(...)
T889C 000:335.986 - 0.548ms 
T889C 000:336.014 JLINK_SetErrorOutHandler(...)
T889C 000:336.024 - 0.009ms 
T889C 000:336.053 JLINK_ExecCommand("ProjectFile = "G:\Edc\edc_cb_1_GF_PARTIAL\MDK-ARM\JLinkSettings.ini"", ...). 
T889C 000:360.516 - 24.464ms returns 0x00
T889C 000:368.031 JLINK_ExecCommand("Device = STM32G474CBTx", ...). 
T889C 000:369.444   Flash bank @ 0x08000000: SFL: Parsing sectorization info from ELF file
T889C 000:395.535     FlashDevice.SectorInfo[0]: .SectorSize = 0x00000800, .SectorStartAddr = 0x00000000
T889C 000:395.552   FlashBank @0x08000000: Sectorization info from SFL ELF file ignored because sectorization override from DLL / XML file is active.
T889C 000:407.082   Device "STM32G474CB" selected.
T889C 000:408.097 - 40.030ms returns 0x00
T889C 000:408.149 JLINK_ExecCommand("DisableConnectionTimeout", ...). 
T889C 000:408.176   ERROR: Unknown command
T889C 000:408.189 - 0.027ms returns 0x01
T889C 000:408.325 JLINK_GetHardwareVersion()
T889C 000:408.336 - 0.011ms returns 97000
T889C 000:408.347 JLINK_GetDLLVersion()
T889C 000:408.356 - 0.009ms returns 81600
T889C 000:408.367 JLINK_GetOEMString(...)
T889C 000:408.379 JLINK_GetFirmwareString(...)
T889C 000:408.389 - 0.009ms 
T889C 000:440.995 JLINK_GetDLLVersion()
T889C 000:441.052 - 0.056ms returns 81600
T889C 000:441.067 JLINK_GetCompileDateTime()
T889C 000:441.079 - 0.012ms 
T889C 000:448.646 JLINK_GetFirmwareString(...)
T889C 000:448.688 - 0.041ms 
T889C 000:456.429 JLINK_GetHardwareVersion()
T889C 000:456.457 - 0.027ms returns 97000
T889C 000:462.615 JLINK_GetSN()
T889C 000:462.660 - 0.045ms returns 63728769
T889C 000:470.726 JLINK_GetOEMString(...)
T889C 000:483.785 JLINK_TIF_Select(JLINKARM_TIF_SWD)
T889C 000:485.929 - 2.143ms returns 0x00
T889C 000:485.983 JLINK_HasError()
T889C 000:485.999 JLINK_SetSpeed(5000)
T889C 000:486.307 - 0.307ms 
T889C 000:486.352 JLINK_GetId()
T889C 000:493.023   InitTarget() start
T889C 000:493.070    J-Link Script File: Executing InitTarget()
T889C 000:500.405   SWD selected. Executing JTAG -> SWD switching sequence.
T889C 000:509.546   DAP initialized successfully.
T889C 000:533.213   InitTarget() end - Took 32.1ms
T889C 000:538.941   Found SW-DP with ID 0x2BA01477
T889C 000:547.905   DPIDR: 0x2BA01477
T889C 000:553.430   CoreSight SoC-400 or earlier
T889C 000:560.742   Scanning AP map to find all available APs
T889C 000:568.375   AP[1]: Stopped AP scan as end of AP map has been reached
T889C 000:575.330   AP[0]: AHB-AP (IDR: 0x24770011, ADDR: 0x00000000)
T889C 000:585.085   Iterating through AP map to find AHB-AP to use
T889C 000:602.372   AP[0]: Core found
T889C 000:615.694   AP[0]: AHB-AP ROM base: 0xE00FF000
T889C 000:632.888   CPUID register: 0x410FC241. Implementer code: 0x41 (ARM)
T889C 000:641.546   Found Cortex-M4 r0p1, Little endian.
T889C 000:642.252   -- Max. mem block: 0x00010E40
T889C 000:642.748   CPU_ReadMem(4 bytes @ 0xE000EDF0)
T889C 000:643.127   CPU_ReadMem(4 bytes @ 0xE0002000)
T889C 000:648.467   FPUnit: 6 code (BP) slots and 2 literal slots
T889C 000:648.502   CPU_ReadMem(4 bytes @ 0xE000EDFC)
T889C 000:648.993   CPU_WriteMem(4 bytes @ 0xE000EDFC)
T889C 000:649.404   CPU_ReadMem(4 bytes @ 0xE0001000)
T889C 000:649.888   CPU_WriteMem(4 bytes @ 0xE0001000)
T889C 000:650.375   CPU_ReadMem(4 bytes @ 0xE000ED88)
T889C 000:650.887   CPU_WriteMem(4 bytes @ 0xE000ED88)
T889C 000:651.344   CPU_ReadMem(4 bytes @ 0xE000ED88)
T889C 000:651.912   CPU_WriteMem(4 bytes @ 0xE000ED88)
T889C 000:660.655   CoreSight components:
T889C 000:667.915   ROMTbl[0] @ E00FF000
T889C 000:667.952   CPU_ReadMem(64 bytes @ 0xE00FF000)
T889C 000:668.766   CPU_ReadMem(32 bytes @ 0xE000EFE0)
T889C 000:674.864   [0][0]: E000E000 CID B105E00D PID 000BB00C SCS-M7
T889C 000:674.902   CPU_ReadMem(32 bytes @ 0xE0001FE0)
T889C 000:682.876   [0][1]: E0001000 CID B105E00D PID 003BB002 DWT
T889C 000:682.911   CPU_ReadMem(32 bytes @ 0xE0002FE0)
T889C 000:689.680   [0][2]: E0002000 CID B105E00D PID 002BB003 FPB
T889C 000:689.718   CPU_ReadMem(32 bytes @ 0xE0000FE0)
T889C 000:700.235   [0][3]: E0000000 CID B105E00D PID 003BB001 ITM
T889C 000:700.293   CPU_ReadMem(32 bytes @ 0xE0040FE0)
T889C 000:710.749   [0][4]: E0040000 CID B105900D PID 000BB9A1 TPIU
T889C 000:710.795   CPU_ReadMem(32 bytes @ 0xE0041FE0)
T889C 000:719.782   [0][5]: E0041000 CID B105900D PID 000BB925 ETM
T889C 000:720.378 - 234.024ms returns 0x2BA01477
T889C 000:720.413 JLINK_GetDLLVersion()
T889C 000:720.419 - 0.005ms returns 81600
T889C 000:720.492 JLINK_CORE_GetFound()
T889C 000:720.498 - 0.006ms returns 0xE0000FF
T889C 000:720.505 JLINK_GetDebugInfo(0x100 = JLINKARM_ROM_TABLE_ADDR_INDEX)
T889C 000:720.513   Value=0xE00FF000
T889C 000:720.522 - 0.017ms returns 0
T889C 000:726.566 JLINK_GetDebugInfo(0x100 = JLINKARM_ROM_TABLE_ADDR_INDEX)
T889C 000:726.602   Value=0xE00FF000
T889C 000:726.611 - 0.045ms returns 0
T889C 000:726.618 JLINK_GetDebugInfo(0x101 = JLINKARM_DEBUG_INFO_ETM_ADDR_INDEX)
T889C 000:726.624   Value=0xE0041000
T889C 000:726.631 - 0.013ms returns 0
T889C 000:726.639 JLINK_ReadMemEx(0xE0041FD0, 0x20 Bytes, Flags = 0x02000004)
T889C 000:726.672   CPU_ReadMem(32 bytes @ 0xE0041FD0)
T889C 000:727.182   Data:  04 00 00 00 00 00 00 00 00 00 00 00 00 00 00 00 ...
T889C 000:727.208 - 0.569ms returns 32 (0x20)
T889C 000:727.219 JLINK_GetDebugInfo(0x102 = JLINKARM_DEBUG_INFO_MTB_ADDR_INDEX)
T889C 000:727.225   Value=0x00000000
T889C 000:727.232 - 0.013ms returns 0
T889C 000:727.239 JLINK_GetDebugInfo(0x103 = JLINKARM_DEBUG_INFO_TPIU_ADDR_INDEX)
T889C 000:727.245   Value=0xE0040000
T889C 000:727.253 - 0.014ms returns 0
T889C 000:727.259 JLINK_GetDebugInfo(0x104 = JLINKARM_DEBUG_INFO_ITM_ADDR_INDEX)
T889C 000:727.264   Value=0xE0000000
T889C 000:727.271 - 0.012ms returns 0
T889C 000:727.278 JLINK_GetDebugInfo(0x105 = JLINKARM_DEBUG_INFO_DWT_ADDR_INDEX)
T889C 000:727.283   Value=0xE0001000
T889C 000:727.291 - 0.013ms returns 0
T889C 000:727.297 JLINK_GetDebugInfo(0x106 = JLINKARM_DEBUG_INFO_FPB_ADDR_INDEX)
T889C 000:727.302   Value=0xE0002000
T889C 000:727.309 - 0.012ms returns 0
T889C 000:727.315 JLINK_GetDebugInfo(0x107 = JLINKARM_DEBUG_INFO_NVIC_ADDR_INDEX)
T889C 000:727.320   Value=0xE000E000
T889C 000:727.328 - 0.012ms returns 0
T889C 000:727.334 JLINK_GetDebugInfo(0x10C = JLINKARM_DEBUG_INFO_DBG_ADDR_INDEX)
T889C 000:727.339   Value=0xE000EDF0
T889C 000:727.346 - 0.012ms returns 0
T889C 000:727.352 JLINK_GetDebugInfo(0x01 = Unknown)
T889C 000:727.357   Value=0x00000001
T889C 000:727.365 - 0.012ms returns 0
T889C 000:727.371 JLINK_ReadMemU32(0xE000ED00, 0x1 Items)
T889C 000:727.386   CPU_ReadMem(4 bytes @ 0xE000ED00)
T889C 000:727.891   Data:  41 C2 0F 41
T889C 000:727.922   Debug reg: CPUID
T889C 000:727.930 - 0.559ms returns 1 (0x1)
T889C 000:727.941 JLINK_GetDebugInfo(0x10F = JLINKARM_DEBUG_INFO_HAS_CORTEX_M_SECURITY_EXT_INDEX)
T889C 000:727.946   Value=0x00000000
T889C 000:727.954 - 0.013ms returns 0
T889C 000:727.961 JLINK_HasError()
T889C 000:727.969 JLINK_SetResetType(JLINKARM_CM3_RESET_TYPE_NORMAL)
T889C 000:727.974 - 0.005ms returns JLINKARM_CM3_RESET_TYPE_NORMAL
T889C 000:727.980 JLINK_Reset()
T889C 000:727.992   JLINK_GetResetTypeDesc
T889C 000:727.997   - 0.005ms 
T889C 000:733.212   Reset type: NORMAL (https://wiki.segger.com/J-Link_Reset_Strategies)
T889C 000:733.253   CPU is running
T889C 000:733.265   CPU_WriteMem(4 bytes @ 0xE000EDF0)
T889C 000:733.742   CPU is running
T889C 000:733.774   CPU_WriteMem(4 bytes @ 0xE000EDFC)
T889C 000:739.019   Reset: Halt core after reset via DEMCR.VC_CORERESET.
T889C 000:745.116   Reset: Reset device via AIRCR.SYSRESETREQ.
T889C 000:745.161   CPU is running
T889C 000:745.177   CPU_WriteMem(4 bytes @ 0xE000ED0C)
T889C 000:800.041   CPU_ReadMem(4 bytes @ 0xE000EDF0)
T889C 000:800.615   CPU_ReadMem(4 bytes @ 0xE000EDF0)
T889C 000:803.953   CPU_WriteMem(4 bytes @ 0xE000EDFC)
T889C 000:810.233   CPU_ReadMem(4 bytes @ 0xE000EDF0)
T889C 000:813.910   CPU_WriteMem(4 bytes @ 0xE0002000)
T889C 000:814.631   CPU_ReadMem(4 bytes @ 0xE000EDFC)
T889C 000:815.220   CPU_ReadMem(4 bytes @ 0xE0001000)
T889C 000:815.728 - 87.746ms 
T889C 000:815.790 JLINK_Halt()
T889C 000:815.799 - 0.009ms returns 0x00
T889C 000:815.816 JLINK_ReadMemU32(0xE000EDF0, 0x1 Items)
T889C 000:815.836   CPU_ReadMem(4 bytes @ 0xE000EDF0)
T889C 000:816.332   Data:  03 00 03 00
T889C 000:816.363   Debug reg: DHCSR
T889C 000:816.376 - 0.560ms returns 1 (0x1)
T889C 000:816.451 JLINK_WriteU32(0xE000EDF0, 0xA05F0003)
T889C 000:816.460   Debug reg: DHCSR
T889C 000:816.954   CPU_WriteMem(4 bytes @ 0xE000EDF0)
T889C 000:817.507 - 1.054ms returns 0 (0x00000000)
T889C 000:817.549 JLINK_WriteU32(0xE000EDFC, 0x01000000)
T889C 000:817.559   Debug reg: DEMCR
T889C 000:817.583   CPU_WriteMem(4 bytes @ 0xE000EDFC)
T889C 000:818.123 - 0.573ms returns 0 (0x00000000)
T889C 000:860.144 JLINK_GetHWStatus(...)
T889C 000:860.551 - 0.405ms returns 0
T889C 000:899.359 JLINK_GetNumBPUnits(Type = 0xFFFFFF00)
T889C 000:899.419 - 0.060ms returns 0x06
T889C 000:899.427 JLINK_GetNumBPUnits(Type = 0xF0)
T889C 000:899.433 - 0.006ms returns 0x2000
T889C 000:899.439 JLINK_GetNumWPUnits()
T889C 000:899.445 - 0.005ms returns 4
T889C 000:916.034 JLINK_GetSpeed()
T889C 000:916.081 - 0.046ms returns 4000
T889C 000:931.650 JLINK_ReadMemU32(0xE000E004, 0x1 Items)
T889C 000:931.707   CPU_ReadMem(4 bytes @ 0xE000E004)
T889C 000:932.274   Data:  03 00 00 00
T889C 000:932.301 - 0.652ms returns 1 (0x1)
T889C 000:932.315 JLINK_ReadMemU32(0xE000E004, 0x1 Items)
T889C 000:932.330   CPU_ReadMem(4 bytes @ 0xE000E004)
T889C 000:932.756   Data:  03 00 00 00
T889C 000:932.783 - 0.467ms returns 1 (0x1)
T889C 000:932.796 JLINK_WriteMemEx(0xE0001000, 0x0000001C Bytes, Flags = 0x02000004)
T889C 000:932.804   Data:  01 00 00 00 00 00 00 00 00 00 00 00 00 00 00 00 ...
T889C 000:932.829   CPU_WriteMem(28 bytes @ 0xE0001000)
T889C 000:933.327 - 0.531ms returns 0x1C
T889C 000:933.355 JLINK_Halt()
T889C 000:933.363 - 0.007ms returns 0x00
T889C 000:933.372 JLINK_IsHalted()
T889C 000:933.381 - 0.008ms returns TRUE
T889C 000:941.220 JLINK_WriteMem(0x20000000, 0x1D4 Bytes, ...)
T889C 000:941.249   Data:  00 BE 0A E0 0D 78 2D 06 68 40 08 24 40 00 00 D3 ...
T889C 000:941.662   CPU_WriteMem(468 bytes @ 0x20000000)
T889C 000:943.717 - 2.491ms returns 0x1D4
T889C 000:943.830 JLINK_HasError()
T889C 000:943.845 JLINK_WriteReg(R0, 0x08000000)
T889C 000:943.859 - 0.014ms returns 0
T889C 000:943.868 JLINK_WriteReg(R1, 0x007A1200)
T889C 000:943.876 - 0.007ms returns 0
T889C 000:943.884 JLINK_WriteReg(R2, 0x00000001)
T889C 000:943.891 - 0.006ms returns 0
T889C 000:943.899 JLINK_WriteReg(R3, 0x00000000)
T889C 000:943.906 - 0.007ms returns 0
T889C 000:943.922 JLINK_WriteReg(R4, 0x00000000)
T889C 000:943.932 - 0.010ms returns 0
T889C 000:943.940 JLINK_WriteReg(R5, 0x00000000)
T889C 000:943.947 - 0.007ms returns 0
T889C 000:943.955 JLINK_WriteReg(R6, 0x00000000)
T889C 000:943.963 - 0.007ms returns 0
T889C 000:943.971 JLINK_WriteReg(R7, 0x00000000)
T889C 000:943.979 - 0.007ms returns 0
T889C 000:943.996 JLINK_WriteReg(R8, 0x00000000)
T889C 000:944.004 - 0.016ms returns 0
T889C 000:944.013 JLINK_WriteReg(R9, 0x200001C0)
T889C 000:944.020 - 0.007ms returns 0
T889C 000:944.028 JLINK_WriteReg(R10, 0x00000000)
T889C 000:944.036 - 0.007ms returns 0
T889C 000:944.044 JLINK_WriteReg(R11, 0x00000000)
T889C 000:944.052 - 0.007ms returns 0
T889C 000:944.060 JLINK_WriteReg(R12, 0x00000000)
T889C 000:944.067 - 0.007ms returns 0
T889C 000:944.076 JLINK_WriteReg(R13 (SP), 0x20008000)
T889C 000:944.086 - 0.009ms returns 0
T889C 000:944.094 JLINK_WriteReg(R14, 0x20000001)
T889C 000:944.101 - 0.007ms returns 0
T889C 000:944.113 JLINK_WriteReg(R15 (PC), 0x20000020)
T889C 000:944.121 - 0.011ms returns 0
T889C 000:944.129 JLINK_WriteReg(XPSR, 0x01000000)
T889C 000:944.136 - 0.007ms returns 0
T889C 000:944.145 JLINK_WriteReg(MSP, 0x20008000)
T889C 000:944.153 - 0.007ms returns 0
T889C 000:944.161 JLINK_WriteReg(PSP, 0x20008000)
T889C 000:944.168 - 0.007ms returns 0
T889C 000:944.177 JLINK_WriteReg(CFBP, 0x00000000)
T889C 000:944.185 - 0.008ms returns 0
T889C 000:944.194 JLINK_SetBPEx(Addr = 0x20000000, Type = 0xFFFFFFF2)
T889C 000:944.213   CPU_ReadMem(2 bytes @ 0x20000000)
T889C 000:944.949 - 0.754ms returns 0x00000001
T889C 000:944.980 JLINK_Go()
T889C 000:944.993   CPU_WriteMem(2 bytes @ 0x20000000)
T889C 000:945.476   CPU_ReadMem(4 bytes @ 0xE0001000)
T889C 000:945.839   CPU_WriteMem(4 bytes @ 0xE0002008)
T889C 000:945.863   CPU_WriteMem(4 bytes @ 0xE000200C)
T889C 000:945.874   CPU_WriteMem(4 bytes @ 0xE0002010)
T889C 000:945.882   CPU_WriteMem(4 bytes @ 0xE0002014)
T889C 000:945.889   CPU_WriteMem(4 bytes @ 0xE0002018)
T889C 000:945.897   CPU_WriteMem(4 bytes @ 0xE000201C)
T889C 000:947.145   CPU_WriteMem(4 bytes @ 0xE0001004)
T889C 000:961.288   Memory map 'after startup completion point' is active
T889C 000:961.330 - 16.349ms 
T889C 000:961.521 JLINK_IsHalted()
T889C 000:963.856   CPU_ReadMem(2 bytes @ 0x20000000)
T889C 000:964.231 - 2.710ms returns TRUE
T889C 000:964.256 JLINK_ReadReg(R15 (PC))
T889C 000:964.268 - 0.012ms returns 0x20000000
T889C 000:964.277 JLINK_ClrBPEx(BPHandle = 0x00000001)
T889C 000:964.285 - 0.008ms returns 0x00
T889C 000:964.293 JLINK_ReadReg(R0)
T889C 000:964.301 - 0.007ms returns 0x00000000
T889C 000:964.873 JLINK_HasError()
T889C 000:964.922 JLINK_WriteReg(R0, 0x08000000)
T889C 000:965.087 - 0.164ms returns 0
T889C 000:965.099 JLINK_WriteReg(R1, 0x007A1200)
T889C 000:965.107 - 0.007ms returns 0
T889C 000:965.115 JLINK_WriteReg(R2, 0x00000001)
T889C 000:965.123 - 0.007ms returns 0
T889C 000:965.131 JLINK_WriteReg(R3, 0x00000000)
T889C 000:965.138 - 0.007ms returns 0
T889C 000:965.146 JLINK_WriteReg(R4, 0x00000000)
T889C 000:965.153 - 0.007ms returns 0
T889C 000:965.160 JLINK_WriteReg(R5, 0x00000000)
T889C 000:965.167 - 0.006ms returns 0
T889C 000:965.175 JLINK_WriteReg(R6, 0x00000000)
T889C 000:965.183 - 0.007ms returns 0
T889C 000:965.191 JLINK_WriteReg(R7, 0x00000000)
T889C 000:965.198 - 0.007ms returns 0
T889C 000:965.206 JLINK_WriteReg(R8, 0x00000000)
T889C 000:965.213 - 0.007ms returns 0
T889C 000:965.221 JLINK_WriteReg(R9, 0x200001C0)
T889C 000:965.228 - 0.007ms returns 0
T889C 000:965.236 JLINK_WriteReg(R10, 0x00000000)
T889C 000:965.243 - 0.006ms returns 0
T889C 000:965.251 JLINK_WriteReg(R11, 0x00000000)
T889C 000:965.258 - 0.007ms returns 0
T889C 000:965.266 JLINK_WriteReg(R12, 0x00000000)
T889C 000:965.273 - 0.006ms returns 0
T889C 000:965.281 JLINK_WriteReg(R13 (SP), 0x20008000)
T889C 000:965.289 - 0.008ms returns 0
T889C 000:965.297 JLINK_WriteReg(R14, 0x20000001)
T889C 000:965.304 - 0.007ms returns 0
T889C 000:965.312 JLINK_WriteReg(R15 (PC), 0x20000090)
T889C 000:965.390 - 0.077ms returns 0
T889C 000:965.402 JLINK_WriteReg(XPSR, 0x01000000)
T889C 000:965.410 - 0.007ms returns 0
T889C 000:965.417 JLINK_WriteReg(MSP, 0x20008000)
T889C 000:965.424 - 0.007ms returns 0
T889C 000:965.432 JLINK_WriteReg(PSP, 0x20008000)
T889C 000:965.440 - 0.007ms returns 0
T889C 000:965.448 JLINK_WriteReg(CFBP, 0x00000000)
T889C 000:965.455 - 0.006ms returns 0
T889C 000:965.464 JLINK_SetBPEx(Addr = 0x20000000, Type = 0xFFFFFFF2)
T889C 000:965.474 - 0.010ms returns 0x00000002
T889C 000:965.482 JLINK_Go()
T889C 000:965.501   CPU_ReadMem(4 bytes @ 0xE0001000)
T889C 000:968.099 - 2.616ms 
T889C 000:968.125 JLINK_IsHalted()
T889C 000:968.556 - 0.429ms returns FALSE
T889C 000:968.580 JLINK_HasError()
T889C 001:034.786 JLINK_IsHalted()
T889C 001:037.233   CPU_ReadMem(2 bytes @ 0x20000000)
T889C 001:037.586 - 2.801ms returns TRUE
T889C 001:037.598 JLINK_ReadReg(R15 (PC))
T889C 001:037.607 - 0.008ms returns 0x20000000
T889C 001:037.614 JLINK_ClrBPEx(BPHandle = 0x00000002)
T889C 001:037.620 - 0.006ms returns 0x00
T889C 001:037.627 JLINK_ReadReg(R0)
T889C 001:037.632 - 0.005ms returns 0x00000000
T889C 001:093.586 JLINK_HasError()
T889C 001:093.639 JLINK_WriteReg(R0, 0x00000001)
T889C 001:093.654 - 0.014ms returns 0
T889C 001:093.664 JLINK_WriteReg(R1, 0x007A1200)
T889C 001:093.674 - 0.010ms returns 0
T889C 001:093.728 JLINK_WriteReg(R2, 0x00000001)
T889C 001:093.738 - 0.009ms returns 0
T889C 001:093.748 JLINK_WriteReg(R3, 0x00000000)
T889C 001:093.756 - 0.008ms returns 0
T889C 001:093.766 JLINK_WriteReg(R4, 0x00000000)
T889C 001:093.774 - 0.008ms returns 0
T889C 001:093.784 JLINK_WriteReg(R5, 0x00000000)
T889C 001:093.793 - 0.009ms returns 0
T889C 001:093.803 JLINK_WriteReg(R6, 0x00000000)
T889C 001:093.811 - 0.008ms returns 0
T889C 001:093.821 JLINK_WriteReg(R7, 0x00000000)
T889C 001:093.829 - 0.008ms returns 0
T889C 001:093.839 JLINK_WriteReg(R8, 0x00000000)
T889C 001:093.847 - 0.008ms returns 0
T889C 001:093.857 JLINK_WriteReg(R9, 0x200001C0)
T889C 001:093.865 - 0.008ms returns 0
T889C 001:093.875 JLINK_WriteReg(R10, 0x00000000)
T889C 001:093.884 - 0.008ms returns 0
T889C 001:093.893 JLINK_WriteReg(R11, 0x00000000)
T889C 001:093.902 - 0.008ms returns 0
T889C 001:093.912 JLINK_WriteReg(R12, 0x00000000)
T889C 001:093.920 - 0.008ms returns 0
T889C 001:093.930 JLINK_WriteReg(R13 (SP), 0x20008000)
T889C 001:093.939 - 0.010ms returns 0
T889C 001:093.949 JLINK_WriteReg(R14, 0x20000001)
T889C 001:093.958 - 0.009ms returns 0
T889C 001:093.968 JLINK_WriteReg(R15 (PC), 0x2000007A)
T889C 001:093.977 - 0.008ms returns 0
T889C 001:093.987 JLINK_WriteReg(XPSR, 0x01000000)
T889C 001:093.995 - 0.008ms returns 0
T889C 001:094.005 JLINK_WriteReg(MSP, 0x20008000)
T889C 001:094.013 - 0.008ms returns 0
T889C 001:094.024 JLINK_WriteReg(PSP, 0x20008000)
T889C 001:094.032 - 0.008ms returns 0
T889C 001:094.042 JLINK_WriteReg(CFBP, 0x00000000)
T889C 001:094.050 - 0.008ms returns 0
T889C 001:094.061 JLINK_SetBPEx(Addr = 0x20000000, Type = 0xFFFFFFF2)
T889C 001:094.073 - 0.012ms returns 0x00000003
T889C 001:094.083 JLINK_Go()
T889C 001:094.111   CPU_ReadMem(4 bytes @ 0xE0001000)
T889C 001:096.988 - 2.904ms 
T889C 001:097.007 JLINK_IsHalted()
T889C 001:099.289   CPU_ReadMem(2 bytes @ 0x20000000)
T889C 001:099.866 - 2.857ms returns TRUE
T889C 001:099.906 JLINK_ReadReg(R15 (PC))
T889C 001:099.920 - 0.014ms returns 0x20000000
T889C 001:099.931 JLINK_ClrBPEx(BPHandle = 0x00000003)
T889C 001:099.940 - 0.009ms returns 0x00
T889C 001:099.950 JLINK_ReadReg(R0)
T889C 001:099.959 - 0.009ms returns 0x00000000
T889C 001:116.304 JLINK_WriteMem(0x20000000, 0x1D4 Bytes, ...)
T889C 001:116.336   Data:  00 BE 0A E0 0D 78 2D 06 68 40 08 24 40 00 00 D3 ...
T889C 001:116.383   CPU_WriteMem(468 bytes @ 0x20000000)
T889C 001:118.762 - 2.457ms returns 0x1D4
T889C 001:118.868 JLINK_HasError()
T889C 001:118.886 JLINK_WriteReg(R0, 0x08000000)
T889C 001:118.902 - 0.016ms returns 0
T889C 001:118.914 JLINK_WriteReg(R1, 0x007A1200)
T889C 001:118.931 - 0.017ms returns 0
T889C 001:118.954 JLINK_WriteReg(R2, 0x00000002)
T889C 001:118.969 - 0.015ms returns 0
T889C 001:118.980 JLINK_WriteReg(R3, 0x00000000)
T889C 001:118.990 - 0.010ms returns 0
T889C 001:119.002 JLINK_WriteReg(R4, 0x00000000)
T889C 001:119.011 - 0.009ms returns 0
T889C 001:119.023 JLINK_WriteReg(R5, 0x00000000)
T889C 001:119.032 - 0.009ms returns 0
T889C 001:119.044 JLINK_WriteReg(R6, 0x00000000)
T889C 001:119.054 - 0.010ms returns 0
T889C 001:119.065 JLINK_WriteReg(R7, 0x00000000)
T889C 001:119.075 - 0.010ms returns 0
T889C 001:119.087 JLINK_WriteReg(R8, 0x00000000)
T889C 001:119.097 - 0.010ms returns 0
T889C 001:119.109 JLINK_WriteReg(R9, 0x200001C0)
T889C 001:119.119 - 0.010ms returns 0
T889C 001:119.130 JLINK_WriteReg(R10, 0x00000000)
T889C 001:119.140 - 0.010ms returns 0
T889C 001:119.151 JLINK_WriteReg(R11, 0x00000000)
T889C 001:119.161 - 0.010ms returns 0
T889C 001:119.172 JLINK_WriteReg(R12, 0x00000000)
T889C 001:119.182 - 0.009ms returns 0
T889C 001:119.194 JLINK_WriteReg(R13 (SP), 0x20008000)
T889C 001:119.206 - 0.012ms returns 0
T889C 001:119.217 JLINK_WriteReg(R14, 0x20000001)
T889C 001:119.227 - 0.009ms returns 0
T889C 001:119.238 JLINK_WriteReg(R15 (PC), 0x20000020)
T889C 001:119.248 - 0.010ms returns 0
T889C 001:119.260 JLINK_WriteReg(XPSR, 0x01000000)
T889C 001:119.270 - 0.010ms returns 0
T889C 001:119.281 JLINK_WriteReg(MSP, 0x20008000)
T889C 001:119.291 - 0.009ms returns 0
T889C 001:119.302 JLINK_WriteReg(PSP, 0x20008000)
T889C 001:119.312 - 0.009ms returns 0
T889C 001:119.323 JLINK_WriteReg(CFBP, 0x00000000)
T889C 001:119.333 - 0.009ms returns 0
T889C 001:119.346 JLINK_SetBPEx(Addr = 0x20000000, Type = 0xFFFFFFF2)
T889C 001:119.367   CPU_ReadMem(2 bytes @ 0x20000000)
T889C 001:119.914 - 0.568ms returns 0x00000004
T889C 001:119.935 JLINK_Go()
T889C 001:119.950   CPU_WriteMem(2 bytes @ 0x20000000)
T889C 001:120.473   CPU_ReadMem(4 bytes @ 0xE0001000)
T889C 001:123.244 - 3.308ms 
T889C 001:123.290 JLINK_IsHalted()
T889C 001:125.717   CPU_ReadMem(2 bytes @ 0x20000000)
T889C 001:126.320 - 3.029ms returns TRUE
T889C 001:126.360 JLINK_ReadReg(R15 (PC))
T889C 001:126.376 - 0.016ms returns 0x20000000
T889C 001:126.389 JLINK_ClrBPEx(BPHandle = 0x00000004)
T889C 001:126.401 - 0.011ms returns 0x00
T889C 001:126.413 JLINK_ReadReg(R0)
T889C 001:126.424 - 0.010ms returns 0x00000000
T889C 001:127.259 JLINK_WriteMem(0x200001D4, 0x22C Bytes, ...)
T889C 001:127.286   Data:  78 61 00 20 F5 01 00 08 D1 65 00 08 FD 43 00 08 ...
T889C 001:127.323   CPU_WriteMem(556 bytes @ 0x200001D4)
T889C 001:129.817 - 2.557ms returns 0x22C
T889C 001:129.864 JLINK_WriteMem(0x20000400, 0x1D4 Bytes, ...)
T889C 001:129.875   Data:  03 E0 11 F8 01 3B 00 F8 01 3B 52 1E F9 D2 70 47 ...
T889C 001:129.909   CPU_WriteMem(468 bytes @ 0x20000400)
T889C 001:132.014 - 2.147ms returns 0x1D4
T889C 001:132.068 JLINK_HasError()
T889C 001:132.087 JLINK_WriteReg(R0, 0x08000000)
T889C 001:132.105 - 0.018ms returns 0
T889C 001:132.120 JLINK_WriteReg(R1, 0x00000400)
T889C 001:132.133 - 0.013ms returns 0
T889C 001:132.148 JLINK_WriteReg(R2, 0x200001D4)
T889C 001:132.160 - 0.011ms returns 0
T889C 001:132.175 JLINK_WriteReg(R3, 0x00000000)
T889C 001:132.188 - 0.012ms returns 0
T889C 001:132.201 JLINK_WriteReg(R4, 0x00000000)
T889C 001:132.212 - 0.011ms returns 0
T889C 001:132.318 JLINK_WriteReg(R5, 0x00000000)
T889C 001:132.335 - 0.016ms returns 0
T889C 001:132.349 JLINK_WriteReg(R6, 0x00000000)
T889C 001:132.361 - 0.012ms returns 0
T889C 001:132.375 JLINK_WriteReg(R7, 0x00000000)
T889C 001:132.387 - 0.012ms returns 0
T889C 001:132.401 JLINK_WriteReg(R8, 0x00000000)
T889C 001:132.414 - 0.013ms returns 0
T889C 001:132.425 JLINK_WriteReg(R9, 0x200001C0)
T889C 001:132.433 - 0.008ms returns 0
T889C 001:132.443 JLINK_WriteReg(R10, 0x00000000)
T889C 001:132.452 - 0.009ms returns 0
T889C 001:132.463 JLINK_WriteReg(R11, 0x00000000)
T889C 001:132.471 - 0.008ms returns 0
T889C 001:132.481 JLINK_WriteReg(R12, 0x00000000)
T889C 001:132.491 - 0.009ms returns 0
T889C 001:132.502 JLINK_WriteReg(R13 (SP), 0x20008000)
T889C 001:132.525 - 0.023ms returns 0
T889C 001:132.535 JLINK_WriteReg(R14, 0x20000001)
T889C 001:132.544 - 0.008ms returns 0
T889C 001:132.554 JLINK_WriteReg(R15 (PC), 0x2000012E)
T889C 001:132.563 - 0.009ms returns 0
T889C 001:132.574 JLINK_WriteReg(XPSR, 0x01000000)
T889C 001:132.583 - 0.008ms returns 0
T889C 001:132.593 JLINK_WriteReg(MSP, 0x20008000)
T889C 001:132.602 - 0.009ms returns 0
T889C 001:132.612 JLINK_WriteReg(PSP, 0x20008000)
T889C 001:132.621 - 0.008ms returns 0
T889C 001:132.631 JLINK_WriteReg(CFBP, 0x00000000)
T889C 001:132.639 - 0.008ms returns 0
T889C 001:132.651 JLINK_SetBPEx(Addr = 0x20000000, Type = 0xFFFFFFF2)
T889C 001:132.664 - 0.013ms returns 0x00000005
T889C 001:132.675 JLINK_Go()
T889C 001:132.699   CPU_ReadMem(4 bytes @ 0xE0001000)
T889C 001:135.818 - 3.141ms 
T889C 001:135.862 JLINK_IsHalted()
T889C 001:136.354 - 0.490ms returns FALSE
T889C 001:136.388 JLINK_HasError()
T889C 001:164.533 JLINK_IsHalted()
T889C 001:167.338   CPU_ReadMem(2 bytes @ 0x20000000)
T889C 001:167.934 - 3.398ms returns TRUE
T889C 001:168.006 JLINK_ReadReg(R15 (PC))
T889C 001:168.027 - 0.020ms returns 0x20000000
T889C 001:168.047 JLINK_ClrBPEx(BPHandle = 0x00000005)
T889C 001:168.062 - 0.015ms returns 0x00
T889C 001:168.088 JLINK_ReadReg(R0)
T889C 001:168.104 - 0.016ms returns 0x00000000
T889C 001:169.134 JLINK_WriteMem(0x200001D4, 0x22C Bytes, ...)
T889C 001:169.162   Data:  52 EA 03 04 5B D0 C3 F3 0A 54 C1 F3 0A 55 2C 44 ...
T889C 001:169.187   CPU_WriteMem(556 bytes @ 0x200001D4)
T889C 001:171.823 - 2.688ms returns 0x22C
T889C 001:171.864 JLINK_WriteMem(0x20000400, 0x1D4 Bytes, ...)
T889C 001:171.874   Data:  30 BC 00 EB C2 50 00 F0 8D B8 30 B5 0B 46 01 46 ...
T889C 001:171.899   CPU_WriteMem(468 bytes @ 0x20000400)
T889C 001:174.093 - 2.227ms returns 0x1D4
T889C 001:174.145 JLINK_HasError()
T889C 001:174.164 JLINK_WriteReg(R0, 0x08000400)
T889C 001:174.183 - 0.019ms returns 0
T889C 001:174.198 JLINK_WriteReg(R1, 0x00000400)
T889C 001:174.211 - 0.013ms returns 0
T889C 001:174.225 JLINK_WriteReg(R2, 0x200001D4)
T889C 001:174.237 - 0.012ms returns 0
T889C 001:174.253 JLINK_WriteReg(R3, 0x00000000)
T889C 001:174.265 - 0.012ms returns 0
T889C 001:174.279 JLINK_WriteReg(R4, 0x00000000)
T889C 001:174.291 - 0.011ms returns 0
T889C 001:174.301 JLINK_WriteReg(R5, 0x00000000)
T889C 001:174.310 - 0.009ms returns 0
T889C 001:174.320 JLINK_WriteReg(R6, 0x00000000)
T889C 001:174.329 - 0.008ms returns 0
T889C 001:174.339 JLINK_WriteReg(R7, 0x00000000)
T889C 001:174.348 - 0.008ms returns 0
T889C 001:174.358 JLINK_WriteReg(R8, 0x00000000)
T889C 001:174.373 - 0.014ms returns 0
T889C 001:174.396 JLINK_WriteReg(R9, 0x200001C0)
T889C 001:174.409 - 0.013ms returns 0
T889C 001:174.419 JLINK_WriteReg(R10, 0x00000000)
T889C 001:174.428 - 0.009ms returns 0
T889C 001:174.439 JLINK_WriteReg(R11, 0x00000000)
T889C 001:174.448 - 0.009ms returns 0
T889C 001:174.459 JLINK_WriteReg(R12, 0x00000000)
T889C 001:174.468 - 0.009ms returns 0
T889C 001:174.479 JLINK_WriteReg(R13 (SP), 0x20008000)
T889C 001:174.489 - 0.010ms returns 0
T889C 001:174.547 JLINK_WriteReg(R14, 0x20000001)
T889C 001:174.556 - 0.009ms returns 0
T889C 001:174.567 JLINK_WriteReg(R15 (PC), 0x2000012E)
T889C 001:174.576 - 0.009ms returns 0
T889C 001:174.587 JLINK_WriteReg(XPSR, 0x01000000)
T889C 001:174.596 - 0.009ms returns 0
T889C 001:174.606 JLINK_WriteReg(MSP, 0x20008000)
T889C 001:174.615 - 0.008ms returns 0
T889C 001:174.625 JLINK_WriteReg(PSP, 0x20008000)
T889C 001:174.634 - 0.009ms returns 0
T889C 001:174.644 JLINK_WriteReg(CFBP, 0x00000000)
T889C 001:174.653 - 0.009ms returns 0
T889C 001:174.665 JLINK_SetBPEx(Addr = 0x20000000, Type = 0xFFFFFFF2)
T889C 001:174.676 - 0.012ms returns 0x00000006
T889C 001:174.687 JLINK_Go()
T889C 001:174.712   CPU_ReadMem(4 bytes @ 0xE0001000)
T889C 001:178.224 - 3.535ms 
T889C 001:178.268 JLINK_IsHalted()
T889C 001:178.850 - 0.581ms returns FALSE
T889C 001:178.887 JLINK_HasError()
T889C 001:180.692 JLINK_IsHalted()
T889C 001:181.230 - 0.537ms returns FALSE
T889C 001:181.278 JLINK_HasError()
T889C 001:182.579 JLINK_IsHalted()
T889C 001:183.239 - 0.659ms returns FALSE
T889C 001:183.283 JLINK_HasError()
T889C 001:185.016 JLINK_IsHalted()
T889C 001:185.606 - 0.589ms returns FALSE
T889C 001:185.644 JLINK_HasError()
T889C 001:187.222 JLINK_IsHalted()
T889C 001:188.048 - 0.825ms returns FALSE
T889C 001:188.088 JLINK_HasError()
T889C 001:190.166 JLINK_IsHalted()
T889C 001:192.906   CPU_ReadMem(2 bytes @ 0x20000000)
T889C 001:193.565 - 3.397ms returns TRUE
T889C 001:193.624 JLINK_ReadReg(R15 (PC))
T889C 001:193.639 - 0.015ms returns 0x20000000
T889C 001:193.650 JLINK_ClrBPEx(BPHandle = 0x00000006)
T889C 001:193.660 - 0.010ms returns 0x00
T889C 001:193.671 JLINK_ReadReg(R0)
T889C 001:193.680 - 0.009ms returns 0x00000000
T889C 001:194.435 JLINK_WriteMem(0x200001D4, 0x22C Bytes, ...)
T889C 001:194.450   Data:  41 EA 0B 01 53 46 5A 46 08 43 13 D0 11 46 53 EA ...
T889C 001:194.470   CPU_WriteMem(556 bytes @ 0x200001D4)
T889C 001:197.046 - 2.611ms returns 0x22C
T889C 001:197.072 JLINK_WriteMem(0x20000400, 0x1D4 Bytes, ...)
T889C 001:197.079   Data:  F7 D4 C1 6D 21 F4 80 71 C1 65 C1 6D C9 04 48 BF ...
T889C 001:197.097   CPU_WriteMem(468 bytes @ 0x20000400)
T889C 001:199.181 - 2.108ms returns 0x1D4
T889C 001:199.215 JLINK_HasError()
T889C 001:199.228 JLINK_WriteReg(R0, 0x08000800)
T889C 001:199.243 - 0.015ms returns 0
T889C 001:199.253 JLINK_WriteReg(R1, 0x00000400)
T889C 001:199.262 - 0.008ms returns 0
T889C 001:199.271 JLINK_WriteReg(R2, 0x200001D4)
T889C 001:199.280 - 0.008ms returns 0
T889C 001:199.290 JLINK_WriteReg(R3, 0x00000000)
T889C 001:199.298 - 0.008ms returns 0
T889C 001:199.307 JLINK_WriteReg(R4, 0x00000000)
T889C 001:199.314 - 0.007ms returns 0
T889C 001:199.321 JLINK_WriteReg(R5, 0x00000000)
T889C 001:199.327 - 0.005ms returns 0
T889C 001:199.334 JLINK_WriteReg(R6, 0x00000000)
T889C 001:199.340 - 0.006ms returns 0
T889C 001:199.347 JLINK_WriteReg(R7, 0x00000000)
T889C 001:199.353 - 0.006ms returns 0
T889C 001:199.360 JLINK_WriteReg(R8, 0x00000000)
T889C 001:199.366 - 0.006ms returns 0
T889C 001:199.373 JLINK_WriteReg(R9, 0x200001C0)
T889C 001:199.379 - 0.006ms returns 0
T889C 001:199.386 JLINK_WriteReg(R10, 0x00000000)
T889C 001:199.392 - 0.006ms returns 0
T889C 001:199.399 JLINK_WriteReg(R11, 0x00000000)
T889C 001:199.405 - 0.006ms returns 0
T889C 001:199.412 JLINK_WriteReg(R12, 0x00000000)
T889C 001:199.418 - 0.006ms returns 0
T889C 001:199.425 JLINK_WriteReg(R13 (SP), 0x20008000)
T889C 001:199.432 - 0.007ms returns 0
T889C 001:199.439 JLINK_WriteReg(R14, 0x20000001)
T889C 001:199.445 - 0.006ms returns 0
T889C 001:199.452 JLINK_WriteReg(R15 (PC), 0x2000012E)
T889C 001:199.458 - 0.006ms returns 0
T889C 001:199.465 JLINK_WriteReg(XPSR, 0x01000000)
T889C 001:199.471 - 0.006ms returns 0
T889C 001:199.478 JLINK_WriteReg(MSP, 0x20008000)
T889C 001:199.484 - 0.005ms returns 0
T889C 001:199.491 JLINK_WriteReg(PSP, 0x20008000)
T889C 001:199.497 - 0.006ms returns 0
T889C 001:199.504 JLINK_WriteReg(CFBP, 0x00000000)
T889C 001:199.510 - 0.006ms returns 0
T889C 001:199.523 JLINK_SetBPEx(Addr = 0x20000000, Type = 0xFFFFFFF2)
T889C 001:199.531 - 0.012ms returns 0x00000007
T889C 001:199.538 JLINK_Go()
T889C 001:199.666   CPU_ReadMem(4 bytes @ 0xE0001000)
T889C 001:202.461 - 2.922ms 
T889C 001:202.496 JLINK_IsHalted()
T889C 001:202.864 - 0.367ms returns FALSE
T889C 001:202.875 JLINK_HasError()
T889C 001:204.810 JLINK_IsHalted()
T889C 001:205.282 - 0.472ms returns FALSE
T889C 001:205.295 JLINK_HasError()
T889C 001:206.933 JLINK_IsHalted()
T889C 001:207.423 - 0.488ms returns FALSE
T889C 001:207.465 JLINK_HasError()
T889C 001:208.988 JLINK_IsHalted()
T889C 001:209.461 - 0.472ms returns FALSE
T889C 001:209.483 JLINK_HasError()
T889C 001:211.130 JLINK_IsHalted()
T889C 001:211.590 - 0.460ms returns FALSE
T889C 001:211.604 JLINK_HasError()
T889C 001:213.131 JLINK_IsHalted()
T889C 001:213.639 - 0.507ms returns FALSE
T889C 001:213.651 JLINK_HasError()
T889C 001:215.122 JLINK_IsHalted()
T889C 001:217.585   CPU_ReadMem(2 bytes @ 0x20000000)
T889C 001:218.264 - 3.140ms returns TRUE
T889C 001:218.297 JLINK_ReadReg(R15 (PC))
T889C 001:218.310 - 0.013ms returns 0x20000000
T889C 001:218.321 JLINK_ClrBPEx(BPHandle = 0x00000007)
T889C 001:218.331 - 0.009ms returns 0x00
T889C 001:218.342 JLINK_ReadReg(R0)
T889C 001:218.351 - 0.009ms returns 0x00000000
T889C 001:219.239 JLINK_WriteMem(0x200001D4, 0x22C Bytes, ...)
T889C 001:219.263   Data:  1F 33 B3 F5 8A 6F 0D D0 13 68 40 F2 83 44 6F F3 ...
T889C 001:219.289   CPU_WriteMem(556 bytes @ 0x200001D4)
T889C 001:221.768 - 2.528ms returns 0x22C
T889C 001:221.785 JLINK_WriteMem(0x20000400, 0x1D4 Bytes, ...)
T889C 001:221.795   Data:  4C F8 03 40 1B D1 DC F8 00 20 DC F8 00 41 22 43 ...
T889C 001:221.815   CPU_WriteMem(468 bytes @ 0x20000400)
T889C 001:223.928 - 2.141ms returns 0x1D4
T889C 001:223.967 JLINK_HasError()
T889C 001:223.984 JLINK_WriteReg(R0, 0x08000C00)
T889C 001:224.001 - 0.017ms returns 0
T889C 001:224.016 JLINK_WriteReg(R1, 0x00000400)
T889C 001:224.029 - 0.013ms returns 0
T889C 001:224.043 JLINK_WriteReg(R2, 0x200001D4)
T889C 001:224.055 - 0.012ms returns 0
T889C 001:224.068 JLINK_WriteReg(R3, 0x00000000)
T889C 001:224.080 - 0.011ms returns 0
T889C 001:224.094 JLINK_WriteReg(R4, 0x00000000)
T889C 001:224.107 - 0.012ms returns 0
T889C 001:224.120 JLINK_WriteReg(R5, 0x00000000)
T889C 001:224.129 - 0.009ms returns 0
T889C 001:224.140 JLINK_WriteReg(R6, 0x00000000)
T889C 001:224.149 - 0.009ms returns 0
T889C 001:224.161 JLINK_WriteReg(R7, 0x00000000)
T889C 001:224.170 - 0.010ms returns 0
T889C 001:224.180 JLINK_WriteReg(R8, 0x00000000)
T889C 001:224.189 - 0.008ms returns 0
T889C 001:224.200 JLINK_WriteReg(R9, 0x200001C0)
T889C 001:224.209 - 0.009ms returns 0
T889C 001:224.219 JLINK_WriteReg(R10, 0x00000000)
T889C 001:224.228 - 0.009ms returns 0
T889C 001:224.239 JLINK_WriteReg(R11, 0x00000000)
T889C 001:224.248 - 0.009ms returns 0
T889C 001:224.258 JLINK_WriteReg(R12, 0x00000000)
T889C 001:224.268 - 0.010ms returns 0
T889C 001:224.279 JLINK_WriteReg(R13 (SP), 0x20008000)
T889C 001:224.288 - 0.010ms returns 0
T889C 001:224.304 JLINK_WriteReg(R14, 0x20000001)
T889C 001:224.313 - 0.009ms returns 0
T889C 001:224.324 JLINK_WriteReg(R15 (PC), 0x2000012E)
T889C 001:224.332 - 0.009ms returns 0
T889C 001:224.343 JLINK_WriteReg(XPSR, 0x01000000)
T889C 001:224.352 - 0.009ms returns 0
T889C 001:224.362 JLINK_WriteReg(MSP, 0x20008000)
T889C 001:224.371 - 0.009ms returns 0
T889C 001:224.382 JLINK_WriteReg(PSP, 0x20008000)
T889C 001:224.390 - 0.008ms returns 0
T889C 001:224.401 JLINK_WriteReg(CFBP, 0x00000000)
T889C 001:224.410 - 0.008ms returns 0
T889C 001:224.421 JLINK_SetBPEx(Addr = 0x20000000, Type = 0xFFFFFFF2)
T889C 001:224.432 - 0.011ms returns 0x00000008
T889C 001:224.442 JLINK_Go()
T889C 001:224.465   CPU_ReadMem(4 bytes @ 0xE0001000)
T889C 001:227.388 - 2.945ms 
T889C 001:227.407 JLINK_IsHalted()
T889C 001:227.868 - 0.461ms returns FALSE
T889C 001:227.881 JLINK_HasError()
T889C 001:232.525 JLINK_IsHalted()
T889C 001:233.022 - 0.497ms returns FALSE
T889C 001:233.041 JLINK_HasError()
T889C 001:234.669 JLINK_IsHalted()
T889C 001:235.119 - 0.449ms returns FALSE
T889C 001:235.134 JLINK_HasError()
T889C 001:236.679 JLINK_IsHalted()
T889C 001:237.144 - 0.464ms returns FALSE
T889C 001:237.157 JLINK_HasError()
T889C 001:238.669 JLINK_IsHalted()
T889C 001:240.968   CPU_ReadMem(2 bytes @ 0x20000000)
T889C 001:241.437 - 2.767ms returns TRUE
T889C 001:241.455 JLINK_ReadReg(R15 (PC))
T889C 001:241.468 - 0.013ms returns 0x20000000
T889C 001:241.479 JLINK_ClrBPEx(BPHandle = 0x00000008)
T889C 001:241.489 - 0.010ms returns 0x00
T889C 001:241.500 JLINK_ReadReg(R0)
T889C 001:241.508 - 0.008ms returns 0x00000000
T889C 001:242.423 JLINK_WriteMem(0x200001D4, 0x22C Bytes, ...)
T889C 001:242.445   Data:  64 46 A2 42 0C D1 BA 6E 22 F0 00 42 BA 66 0A 68 ...
T889C 001:242.472   CPU_WriteMem(556 bytes @ 0x200001D4)
T889C 001:244.957 - 2.534ms returns 0x22C
T889C 001:244.989 JLINK_WriteMem(0x20000400, 0x1D4 Bytes, ...)
T889C 001:245.007   Data:  10 D0 77 45 19 D0 77 45 0C D0 0E F5 C0 61 0B E0 ...
T889C 001:245.030   CPU_WriteMem(468 bytes @ 0x20000400)
T889C 001:247.240 - 2.249ms returns 0x1D4
T889C 001:247.299 JLINK_HasError()
T889C 001:247.399 JLINK_WriteReg(R0, 0x08001000)
T889C 001:247.441 - 0.042ms returns 0
T889C 001:247.452 JLINK_WriteReg(R1, 0x00000400)
T889C 001:247.461 - 0.009ms returns 0
T889C 001:247.471 JLINK_WriteReg(R2, 0x200001D4)
T889C 001:247.480 - 0.008ms returns 0
T889C 001:247.490 JLINK_WriteReg(R3, 0x00000000)
T889C 001:247.498 - 0.008ms returns 0
T889C 001:247.507 JLINK_WriteReg(R4, 0x00000000)
T889C 001:247.515 - 0.008ms returns 0
T889C 001:247.525 JLINK_WriteReg(R5, 0x00000000)
T889C 001:247.533 - 0.008ms returns 0
T889C 001:247.542 JLINK_WriteReg(R6, 0x00000000)
T889C 001:247.551 - 0.008ms returns 0
T889C 001:247.560 JLINK_WriteReg(R7, 0x00000000)
T889C 001:247.568 - 0.008ms returns 0
T889C 001:247.579 JLINK_WriteReg(R8, 0x00000000)
T889C 001:247.587 - 0.008ms returns 0
T889C 001:247.597 JLINK_WriteReg(R9, 0x200001C0)
T889C 001:247.605 - 0.008ms returns 0
T889C 001:247.617 JLINK_WriteReg(R10, 0x00000000)
T889C 001:247.629 - 0.012ms returns 0
T889C 001:247.642 JLINK_WriteReg(R11, 0x00000000)
T889C 001:247.654 - 0.011ms returns 0
T889C 001:247.666 JLINK_WriteReg(R12, 0x00000000)
T889C 001:247.677 - 0.011ms returns 0
T889C 001:247.690 JLINK_WriteReg(R13 (SP), 0x20008000)
T889C 001:247.703 - 0.012ms returns 0
T889C 001:247.716 JLINK_WriteReg(R14, 0x20000001)
T889C 001:247.727 - 0.011ms returns 0
T889C 001:247.741 JLINK_WriteReg(R15 (PC), 0x2000012E)
T889C 001:247.753 - 0.012ms returns 0
T889C 001:247.766 JLINK_WriteReg(XPSR, 0x01000000)
T889C 001:247.779 - 0.012ms returns 0
T889C 001:247.792 JLINK_WriteReg(MSP, 0x20008000)
T889C 001:247.803 - 0.010ms returns 0
T889C 001:247.812 JLINK_WriteReg(PSP, 0x20008000)
T889C 001:247.821 - 0.008ms returns 0
T889C 001:247.830 JLINK_WriteReg(CFBP, 0x00000000)
T889C 001:247.838 - 0.008ms returns 0
T889C 001:247.849 JLINK_SetBPEx(Addr = 0x20000000, Type = 0xFFFFFFF2)
T889C 001:247.861 - 0.012ms returns 0x00000009
T889C 001:247.871 JLINK_Go()
T889C 001:247.904   CPU_ReadMem(4 bytes @ 0xE0001000)
T889C 001:251.052 - 3.178ms 
T889C 001:251.096 JLINK_IsHalted()
T889C 001:251.744 - 0.647ms returns FALSE
T889C 001:251.780 JLINK_HasError()
T889C 001:253.148 JLINK_IsHalted()
T889C 001:254.072 - 0.923ms returns FALSE
T889C 001:254.107 JLINK_HasError()
T889C 001:256.173 JLINK_IsHalted()
T889C 001:256.842 - 0.668ms returns FALSE
T889C 001:256.893 JLINK_HasError()
T889C 001:258.932 JLINK_IsHalted()
T889C 001:259.550 - 0.617ms returns FALSE
T889C 001:259.585 JLINK_HasError()
T889C 001:261.175 JLINK_IsHalted()
T889C 001:262.941 - 1.764ms returns FALSE
T889C 001:262.977 JLINK_HasError()
T889C 001:264.731 JLINK_IsHalted()
T889C 001:267.678   CPU_ReadMem(2 bytes @ 0x20000000)
T889C 001:268.270 - 3.538ms returns TRUE
T889C 001:268.325 JLINK_ReadReg(R15 (PC))
T889C 001:268.339 - 0.014ms returns 0x20000000
T889C 001:268.351 JLINK_ClrBPEx(BPHandle = 0x00000009)
T889C 001:268.361 - 0.010ms returns 0x00
T889C 001:268.372 JLINK_ReadReg(R0)
T889C 001:268.381 - 0.009ms returns 0x00000000
T889C 001:269.312 JLINK_WriteMem(0x200001D4, 0x22C Bytes, ...)
T889C 001:269.332   Data:  0A 61 8A 68 12 07 3E D4 94 F8 38 20 23 7F 52 00 ...
T889C 001:269.357   CPU_WriteMem(556 bytes @ 0x200001D4)
T889C 001:271.918 - 2.605ms returns 0x22C
T889C 001:271.951 JLINK_WriteMem(0x20000400, 0x1D4 Bytes, ...)
T889C 001:271.960   Data:  72 07 04 D4 0E 46 94 F8 58 10 01 29 02 D1 02 20 ...
T889C 001:271.985   CPU_WriteMem(468 bytes @ 0x20000400)
T889C 001:274.111 - 2.158ms returns 0x1D4
T889C 001:274.163 JLINK_HasError()
T889C 001:274.304 JLINK_WriteReg(R0, 0x08001400)
T889C 001:274.335 - 0.031ms returns 0
T889C 001:274.350 JLINK_WriteReg(R1, 0x00000400)
T889C 001:274.358 - 0.008ms returns 0
T889C 001:274.368 JLINK_WriteReg(R2, 0x200001D4)
T889C 001:274.376 - 0.008ms returns 0
T889C 001:274.385 JLINK_WriteReg(R3, 0x00000000)
T889C 001:274.401 - 0.015ms returns 0
T889C 001:274.428 JLINK_WriteReg(R4, 0x00000000)
T889C 001:274.435 - 0.008ms returns 0
T889C 001:274.466 JLINK_WriteReg(R5, 0x00000000)
T889C 001:274.479 - 0.012ms returns 0
T889C 001:274.492 JLINK_WriteReg(R6, 0x00000000)
T889C 001:274.504 - 0.012ms returns 0
T889C 001:274.514 JLINK_WriteReg(R7, 0x00000000)
T889C 001:274.521 - 0.007ms returns 0
T889C 001:274.531 JLINK_WriteReg(R8, 0x00000000)
T889C 001:274.539 - 0.008ms returns 0
T889C 001:274.548 JLINK_WriteReg(R9, 0x200001C0)
T889C 001:274.556 - 0.008ms returns 0
T889C 001:274.565 JLINK_WriteReg(R10, 0x00000000)
T889C 001:274.573 - 0.007ms returns 0
T889C 001:274.582 JLINK_WriteReg(R11, 0x00000000)
T889C 001:274.599 - 0.016ms returns 0
T889C 001:274.612 JLINK_WriteReg(R12, 0x00000000)
T889C 001:274.623 - 0.011ms returns 0
T889C 001:274.633 JLINK_WriteReg(R13 (SP), 0x20008000)
T889C 001:274.642 - 0.009ms returns 0
T889C 001:274.651 JLINK_WriteReg(R14, 0x20000001)
T889C 001:274.659 - 0.007ms returns 0
T889C 001:274.668 JLINK_WriteReg(R15 (PC), 0x2000012E)
T889C 001:274.676 - 0.008ms returns 0
T889C 001:274.685 JLINK_WriteReg(XPSR, 0x01000000)
T889C 001:274.693 - 0.008ms returns 0
T889C 001:274.703 JLINK_WriteReg(MSP, 0x20008000)
T889C 001:274.711 - 0.008ms returns 0
T889C 001:274.721 JLINK_WriteReg(PSP, 0x20008000)
T889C 001:274.729 - 0.008ms returns 0
T889C 001:274.738 JLINK_WriteReg(CFBP, 0x00000000)
T889C 001:274.745 - 0.007ms returns 0
T889C 001:274.756 JLINK_SetBPEx(Addr = 0x20000000, Type = 0xFFFFFFF2)
T889C 001:274.766 - 0.010ms returns 0x0000000A
T889C 001:274.776 JLINK_Go()
T889C 001:274.797   CPU_ReadMem(4 bytes @ 0xE0001000)
T889C 001:278.010 - 3.232ms 
T889C 001:278.070 JLINK_IsHalted()
T889C 001:278.938 - 0.866ms returns FALSE
T889C 001:278.975 JLINK_HasError()
T889C 001:280.882 JLINK_IsHalted()
T889C 001:281.837 - 0.954ms returns FALSE
T889C 001:281.880 JLINK_HasError()
T889C 001:283.689 JLINK_IsHalted()
T889C 001:284.328 - 0.638ms returns FALSE
T889C 001:284.362 JLINK_HasError()
T889C 001:285.818 JLINK_IsHalted()
T889C 001:286.517 - 0.697ms returns FALSE
T889C 001:286.551 JLINK_HasError()
T889C 001:287.826 JLINK_IsHalted()
T889C 001:288.518 - 0.691ms returns FALSE
T889C 001:288.561 JLINK_HasError()
T889C 001:289.818 JLINK_IsHalted()
T889C 001:292.378   CPU_ReadMem(2 bytes @ 0x20000000)
T889C 001:293.045 - 3.225ms returns TRUE
T889C 001:293.081 JLINK_ReadReg(R15 (PC))
T889C 001:293.096 - 0.014ms returns 0x20000000
T889C 001:293.107 JLINK_ClrBPEx(BPHandle = 0x0000000A)
T889C 001:293.117 - 0.009ms returns 0x00
T889C 001:293.128 JLINK_ReadReg(R0)
T889C 001:293.137 - 0.008ms returns 0x00000000
T889C 001:294.137 JLINK_WriteMem(0x200001D4, 0x22C Bytes, ...)
T889C 001:294.160   Data:  60 45 18 D1 8E 6A 96 43 13 E0 60 45 01 F1 24 03 ...
T889C 001:294.187   CPU_WriteMem(556 bytes @ 0x200001D4)
T889C 001:296.861 - 2.723ms returns 0x22C
T889C 001:296.896 JLINK_WriteMem(0x20000400, 0x1D4 Bytes, ...)
T889C 001:296.906   Data:  01 20 70 47 20 68 41 F6 B7 51 C0 F2 C1 41 41 61 ...
T889C 001:296.930   CPU_WriteMem(468 bytes @ 0x20000400)
T889C 001:299.094 - 2.197ms returns 0x1D4
T889C 001:299.156 JLINK_HasError()
T889C 001:299.256 JLINK_WriteReg(R0, 0x08001800)
T889C 001:299.294 - 0.038ms returns 0
T889C 001:299.306 JLINK_WriteReg(R1, 0x00000400)
T889C 001:299.315 - 0.009ms returns 0
T889C 001:299.325 JLINK_WriteReg(R2, 0x200001D4)
T889C 001:299.334 - 0.009ms returns 0
T889C 001:299.344 JLINK_WriteReg(R3, 0x00000000)
T889C 001:299.352 - 0.008ms returns 0
T889C 001:299.363 JLINK_WriteReg(R4, 0x00000000)
T889C 001:299.373 - 0.009ms returns 0
T889C 001:299.382 JLINK_WriteReg(R5, 0x00000000)
T889C 001:299.390 - 0.008ms returns 0
T889C 001:299.401 JLINK_WriteReg(R6, 0x00000000)
T889C 001:299.409 - 0.008ms returns 0
T889C 001:299.418 JLINK_WriteReg(R7, 0x00000000)
T889C 001:299.427 - 0.008ms returns 0
T889C 001:299.436 JLINK_WriteReg(R8, 0x00000000)
T889C 001:299.445 - 0.008ms returns 0
T889C 001:299.454 JLINK_WriteReg(R9, 0x200001C0)
T889C 001:299.463 - 0.008ms returns 0
T889C 001:299.484 JLINK_WriteReg(R10, 0x00000000)
T889C 001:299.493 - 0.008ms returns 0
T889C 001:299.503 JLINK_WriteReg(R11, 0x00000000)
T889C 001:299.559 - 0.056ms returns 0
T889C 001:299.570 JLINK_WriteReg(R12, 0x00000000)
T889C 001:299.578 - 0.008ms returns 0
T889C 001:299.588 JLINK_WriteReg(R13 (SP), 0x20008000)
T889C 001:299.597 - 0.009ms returns 0
T889C 001:299.606 JLINK_WriteReg(R14, 0x20000001)
T889C 001:299.615 - 0.008ms returns 0
T889C 001:299.625 JLINK_WriteReg(R15 (PC), 0x2000012E)
T889C 001:299.634 - 0.008ms returns 0
T889C 001:299.643 JLINK_WriteReg(XPSR, 0x01000000)
T889C 001:299.652 - 0.008ms returns 0
T889C 001:299.661 JLINK_WriteReg(MSP, 0x20008000)
T889C 001:299.670 - 0.008ms returns 0
T889C 001:299.679 JLINK_WriteReg(PSP, 0x20008000)
T889C 001:299.688 - 0.008ms returns 0
T889C 001:299.703 JLINK_WriteReg(CFBP, 0x00000000)
T889C 001:299.712 - 0.008ms returns 0
T889C 001:299.723 JLINK_SetBPEx(Addr = 0x20000000, Type = 0xFFFFFFF2)
T889C 001:299.733 - 0.011ms returns 0x0000000B
T889C 001:299.743 JLINK_Go()
T889C 001:299.765   CPU_ReadMem(4 bytes @ 0xE0001000)
T889C 001:303.077 - 3.333ms 
T889C 001:303.112 JLINK_IsHalted()
T889C 001:303.627 - 0.513ms returns FALSE
T889C 001:303.661 JLINK_HasError()
T889C 001:305.781 JLINK_IsHalted()
T889C 001:306.363 - 0.581ms returns FALSE
T889C 001:306.397 JLINK_HasError()
T889C 001:307.638 JLINK_IsHalted()
T889C 001:308.112 - 0.473ms returns FALSE
T889C 001:308.159 JLINK_HasError()
T889C 001:309.701 JLINK_IsHalted()
T889C 001:310.317 - 0.614ms returns FALSE
T889C 001:310.354 JLINK_HasError()
T889C 001:311.675 JLINK_IsHalted()
T889C 001:312.359 - 0.683ms returns FALSE
T889C 001:312.396 JLINK_HasError()
T889C 001:313.689 JLINK_IsHalted()
T889C 001:316.674   CPU_ReadMem(2 bytes @ 0x20000000)
T889C 001:317.345 - 3.655ms returns TRUE
T889C 001:317.394 JLINK_ReadReg(R15 (PC))
T889C 001:317.408 - 0.013ms returns 0x20000000
T889C 001:317.418 JLINK_ClrBPEx(BPHandle = 0x0000000B)
T889C 001:317.428 - 0.010ms returns 0x00
T889C 001:317.439 JLINK_ReadReg(R0)
T889C 001:317.448 - 0.008ms returns 0x00000000
T889C 001:318.346 JLINK_WriteMem(0x200001D4, 0x22C Bytes, ...)
T889C 001:318.366   Data:  C4 41 88 42 88 BF 46 F4 80 46 07 FA 08 F1 20 68 ...
T889C 001:318.391   CPU_WriteMem(556 bytes @ 0x200001D4)
T889C 001:321.024 - 2.678ms returns 0x22C
T889C 001:321.059 JLINK_WriteMem(0x20000400, 0x1D4 Bytes, ...)
T889C 001:321.069   Data:  20 03 C2 F2 00 03 1B 68 42 F6 63 54 9B 09 C0 F2 ...
T889C 001:321.093   CPU_WriteMem(468 bytes @ 0x20000400)
T889C 001:323.182 - 2.122ms returns 0x1D4
T889C 001:323.220 JLINK_HasError()
T889C 001:323.235 JLINK_WriteReg(R0, 0x08001C00)
T889C 001:323.250 - 0.015ms returns 0
T889C 001:323.263 JLINK_WriteReg(R1, 0x00000400)
T889C 001:323.275 - 0.011ms returns 0
T889C 001:323.287 JLINK_WriteReg(R2, 0x200001D4)
T889C 001:323.298 - 0.011ms returns 0
T889C 001:323.309 JLINK_WriteReg(R3, 0x00000000)
T889C 001:323.320 - 0.010ms returns 0
T889C 001:323.333 JLINK_WriteReg(R4, 0x00000000)
T889C 001:323.343 - 0.011ms returns 0
T889C 001:323.355 JLINK_WriteReg(R5, 0x00000000)
T889C 001:323.371 - 0.016ms returns 0
T889C 001:323.383 JLINK_WriteReg(R6, 0x00000000)
T889C 001:323.394 - 0.011ms returns 0
T889C 001:323.407 JLINK_WriteReg(R7, 0x00000000)
T889C 001:323.418 - 0.011ms returns 0
T889C 001:323.431 JLINK_WriteReg(R8, 0x00000000)
T889C 001:323.442 - 0.011ms returns 0
T889C 001:323.455 JLINK_WriteReg(R9, 0x200001C0)
T889C 001:323.466 - 0.010ms returns 0
T889C 001:323.477 JLINK_WriteReg(R10, 0x00000000)
T889C 001:323.488 - 0.010ms returns 0
T889C 001:323.500 JLINK_WriteReg(R11, 0x00000000)
T889C 001:323.511 - 0.010ms returns 0
T889C 001:323.523 JLINK_WriteReg(R12, 0x00000000)
T889C 001:323.535 - 0.012ms returns 0
T889C 001:323.547 JLINK_WriteReg(R13 (SP), 0x20008000)
T889C 001:323.559 - 0.011ms returns 0
T889C 001:323.571 JLINK_WriteReg(R14, 0x20000001)
T889C 001:323.581 - 0.010ms returns 0
T889C 001:323.594 JLINK_WriteReg(R15 (PC), 0x2000012E)
T889C 001:323.605 - 0.011ms returns 0
T889C 001:323.686 JLINK_WriteReg(XPSR, 0x01000000)
T889C 001:323.698 - 0.012ms returns 0
T889C 001:323.711 JLINK_WriteReg(MSP, 0x20008000)
T889C 001:323.723 - 0.012ms returns 0
T889C 001:323.737 JLINK_WriteReg(PSP, 0x20008000)
T889C 001:323.749 - 0.012ms returns 0
T889C 001:323.763 JLINK_WriteReg(CFBP, 0x00000000)
T889C 001:323.775 - 0.011ms returns 0
T889C 001:323.790 JLINK_SetBPEx(Addr = 0x20000000, Type = 0xFFFFFFF2)
T889C 001:323.810 - 0.021ms returns 0x0000000C
T889C 001:323.824 JLINK_Go()
T889C 001:323.851   CPU_ReadMem(4 bytes @ 0xE0001000)
T889C 001:326.863 - 3.038ms 
T889C 001:326.928 JLINK_IsHalted()
T889C 001:327.422 - 0.492ms returns FALSE
T889C 001:327.467 JLINK_HasError()
T889C 001:340.030 JLINK_IsHalted()
T889C 001:342.793   CPU_ReadMem(2 bytes @ 0x20000000)
T889C 001:343.424 - 3.394ms returns TRUE
T889C 001:343.476 JLINK_ReadReg(R15 (PC))
T889C 001:343.492 - 0.016ms returns 0x20000000
T889C 001:343.504 JLINK_ClrBPEx(BPHandle = 0x0000000C)
T889C 001:343.516 - 0.011ms returns 0x00
T889C 001:343.527 JLINK_ReadReg(R0)
T889C 001:343.537 - 0.009ms returns 0x00000000
T889C 001:344.707 JLINK_WriteMem(0x200001D4, 0x22C Bytes, ...)
T889C 001:344.741   Data:  7F 03 01 3A 03 2A 4F F0 00 02 2B 60 0C 60 0D D8 ...
T889C 001:344.779   CPU_WriteMem(556 bytes @ 0x200001D4)
T889C 001:347.366 - 2.659ms returns 0x22C
T889C 001:347.406 JLINK_WriteMem(0x20000400, 0x1D4 Bytes, ...)
T889C 001:347.417   Data:  02 F0 01 02 04 92 04 9A 28 F0 03 02 4F F6 08 4C ...
T889C 001:347.443   CPU_WriteMem(468 bytes @ 0x20000400)
T889C 001:349.637 - 2.230ms returns 0x1D4
T889C 001:349.675 JLINK_HasError()
T889C 001:349.689 JLINK_WriteReg(R0, 0x08002000)
T889C 001:349.703 - 0.014ms returns 0
T889C 001:349.714 JLINK_WriteReg(R1, 0x00000400)
T889C 001:349.723 - 0.009ms returns 0
T889C 001:349.734 JLINK_WriteReg(R2, 0x200001D4)
